
**** 04/20/24 18:58:48 **** PSpice 23.1.0 (30 January 2024) *** ID# 0 ********

 ** Profile: "SCHEMATIC1-ac-response"  [ c:\eeo\eeo-311\simulation\s-2\_spice\pm-sim-2-pspicefiles\schematic1\ac-response.sim ] 


 ****     CIRCUIT DESCRIPTION


******************************************************************************




** Creating circuit file "ac-response.cir" 
** WARNING: THIS AUTOMATICALLY GENERATED FILE MAY BE OVERWRITTEN BY SUBSEQUENT SIMULATIONS

*Libraries: 
* Profile Libraries :
* Local Libraries :
.LIB "../../../ese311models.lib" 
* From [PSPICE NETLIST] section of C:\cds_spb_home\cdssetup\OrCAD_PSpiceTIPSpice_Install\23.1.0\PSpice.ini file:
.lib "nom_pspti.lib" 
.lib "nom.lib" 

*Analysis directives: 
.AC DEC 40 10k 10G
.OPTIONS ADVCONV
.OPTIONS FILEMODELSEARCH
.PROBE64 N([VOUT1])
.PROBE64 N([VOUT2])
.INC "..\SCHEMATIC1.net" 



**** INCLUDING SCHEMATIC1.net ****
* source PM-SIM-2
V_Vdd         N01279 0 2Vdc
V_V1         N00798 0 DC 0Vdc AC -0.5Vac 
V_Vss         0 N01097 2Vdc
V_V2         N00786 0 DC 0Vdc AC 0.5Vac 
R_R1         N01032 N01036  330k TC=0,0 
C_C1         VOUT1 0  100f  TC=0,0 
C_C2         0 VOUT2  100f  TC=0,0 
R_R2         N00782 N00786  1 TC=0,0 
R_R3         N00798 N00805  1 TC=0,0 
M_M8         N01032 N01032 N01097 N01097 CMOSN  
+ L=0.6u  
+ W=5u          
+ M=1
M_M9         N01036 N01036 N01279 N01279 CMOSP  
+ L=0.6u  
+ W=5u          
+ M=1
M_M10         N00809 N01036 N01279 N01279 CMOSP  
+ L=0.6u  
+ W=42u          
+ M=1
M_M11         VOUT1 N00782 N00809 N00809 CMOSP  
+ L=0.6u  
+ W=60u          
+ M=1
M_M12         VOUT2 N00805 N00809 N00809 CMOSP  
+ L=0.6u  
+ W=60u          
+ M=1
M_M13         VOUT1 N01032 N01097 N01097 CMOSN  
+ L=0.6u  
+ W=10u          
+ M=1
M_M14         VOUT2 N01032 N01097 N01097 CMOSN  
+ L=0.6u  
+ W=10u          
+ M=1

**** RESUMING ac-response.cir ****
.END

WARNING(ORPSIM-15235): Mosfet M_M8, model CMOSN: Pd = 0 is less than W

WARNING(ORPSIM-15235): Mosfet M_M8, model CMOSN: Ps = 0 is less than W

WARNING(ORPSIM-15235): Mosfet M_M13, model CMOSN: Pd = 0 is less than W

WARNING(ORPSIM-15235): Mosfet M_M13, model CMOSN: Ps = 0 is less than W

WARNING(ORPSIM-15235): Mosfet M_M14, model CMOSN: Pd = 0 is less than W

WARNING(ORPSIM-15235): Mosfet M_M14, model CMOSN: Ps = 0 is less than W

WARNING(ORPSIM-15235): Mosfet M_M9, model CMOSP: Pd = 0 is less than W

WARNING(ORPSIM-15235): Mosfet M_M9, model CMOSP: Ps = 0 is less than W

WARNING(ORPSIM-15235): Mosfet M_M10, model CMOSP: Pd = 0 is less than W

WARNING(ORPSIM-15235): Mosfet M_M10, model CMOSP: Ps = 0 is less than W

WARNING(ORPSIM-15235): Mosfet M_M11, model CMOSP: Pd = 0 is less than W

WARNING(ORPSIM-15235): Mosfet M_M11, model CMOSP: Ps = 0 is less than W

WARNING(ORPSIM-15235): Mosfet M_M12, model CMOSP: Pd = 0 is less than W

WARNING(ORPSIM-15235): Mosfet M_M12, model CMOSP: Ps = 0 is less than W

INFO(ORPSIM-15454): Model CMOSN: Using BSIM VERSION 3.1 or lower

INFO(ORPSIM-15454): Model CMOSP: Using BSIM VERSION 3.1 or lower

**** 04/20/24 18:58:48 **** PSpice 23.1.0 (30 January 2024) *** ID# 0 ********

 ** Profile: "SCHEMATIC1-ac-response"  [ c:\eeo\eeo-311\simulation\s-2\_spice\pm-sim-2-pspicefiles\schematic1\ac-response.sim ] 


 ****     MOSFET MODEL PARAMETERS


******************************************************************************




               CMOSN           CMOSP           
               NMOS            PMOS            
  T_Measured   27              27            
   T_Current   27              27            
       LEVEL    7               7            
           L  100.000000E-06  100.000000E-06 
           W  100.000000E-06  100.000000E-06 
         VTO     .650464        -.93898      
          KP  147.991900E-06  147.991900E-06 
       GAMMA    0               0            
      LAMBDA    0               0            
         RSH   79.6           101.9          
          IS    1.000000E-15    1.000000E-15 
          JS  100.000000E-06  100.000000E-06 
          PB     .99             .950493     
        PBSW     .1              .99         
          CJ  420.723800E-06  726.880400E-06 
        CJSW  327.876600E-12  264.809400E-12 
          MJ     .44673          .495407     
        MJSW     .117014         .294044     
        CGSO  200.000000E-12  252.000000E-12 
        CGDO  200.000000E-12  252.000000E-12 
        CGBO    1.000000E-09    1.000000E-09 
         TOX   14.000000E-09   14.000000E-09 
          XJ  150.000000E-09  150.000000E-09 
       UCRIT   10.000000E+03   10.000000E+03 
       DELTA     .01             .01         
          KF  200.000000E-27  350.000000E-27 
          AF     .72             .95         
      DIOMOD    2               2            
          K1     .874675         .544468     
          K2    -.095286         .010635     
        LETA    0               0            
        WETA    0               0            
          U0  452.5819        218.7592       
       XPART     .5              .5          
        VTH0     .650464        -.93898      
          K3   25.86693         6.844851     
          W0   10.000000E-09   10.000000E-09 
         NLX    1.000000E-09    1.000000E-09 
        DVT0    3.702709        2.577757     
        DVT1     .408127         .535562     
          UA  100.000000E-15    3.029461E-09 
          UB    1.351173E-18    1.000000E-21 
          UC   13.200030E-12  -56.350800E-12 
        VSAT  163.416100E+03  180.265300E+03 
        RDSW    1.119403E+03    2.794425E+03 
        VOFF    0               -.049952     
     NFACTOR     .675259         .905627     
        PCLM    2.627889        2.180432     
      PDIBL1    -.10571          .084068     
      PDIBL2    2.351583E-03    4.063444E-03 
       DROUT     .524785         .268639     
      PSCBE1  577.927100E+06   13.238990E+09 
      PSCBE2   79.674190E-06    1.289795E-09 
          A0     .584538         .853557     
          A1   26.381370E-06    0            
          A2     .356878         .3          
       NPEAK  170.000000E+15  170.000000E+15 
         LDD    0               0            
        LITL   79.372540E-09   79.372540E-09 
         UA1    4.310000E-09    4.310000E-09 
         UB1   -7.610000E-18   -7.610000E-18 
         UC1  -56.000000E-12  -56.000000E-12 
        KETA   -1.873074E-03   -2.317380E-03 
        ETA0     .033081         .157391     
        ETAB -866.809300E-06    -.067905     
         K3B   -8.132957        -.958659     
        DVT2    -.095138        -.115073     
        DSUB     .269658         .99424      
      MOBMOD    1               1            
         AGS     .130113         .14044      
       DVT1W    0               0            
       DVT2W    0               0            
        PRWG     .096515        -.048095     
        PRWB     .052593        -.049755     
     PDIBLCB    -.108329        -.051069     
         DWG   -5.327466E-09  -19.468120E-09 
         DWB   50.590050E-09   17.193090E-09 
          B0    2.597673E-06  975.001300E-09 
          B1    5.000000E-06    5.000000E-06 
        LINT   27.854900E-09   59.756600E-09 
        WINT  234.158000E-09  310.801400E-09 
         DLC   27.854900E-09   59.756600E-09 
         DWC  234.158000E-09  310.801400E-09 
          CF    0               0            
        NOIA  100.000000E+18    9.900000E+18 
        NOIB   50.000000E+03    2.400000E+03 
        NOIC   -1.400000E-12    1.400000E-12 
       LKETA    2.322883E-03   -5.675893E-03 
       WKETA    -.031361        1.999387E-03 
       PVTH0     .092253        5.980160E-03 
       PRDSW  -82.82922        14.85984      
         PK2    -.034671        3.739810E-03 
         VTM     .025864         .025864     
     VERSION    3.1             3.1          
       PBSWG     .1              .99         
       MJSWG     .117014         .294044     
       CJSWG  164.000000E-12   64.000000E-12 


WARNING(ORPSIM-15235): Mosfet M_M8, model CMOSN: Pd = 0 is less than W

WARNING(ORPSIM-15235): Mosfet M_M8, model CMOSN: Ps = 0 is less than W

WARNING(ORPSIM-15235): Mosfet M_M13, model CMOSN: Pd = 0 is less than W

WARNING(ORPSIM-15235): Mosfet M_M13, model CMOSN: Ps = 0 is less than W

WARNING(ORPSIM-15235): Mosfet M_M9, model CMOSP: Pd = 0 is less than W

WARNING(ORPSIM-15235): Mosfet M_M9, model CMOSP: Ps = 0 is less than W

WARNING(ORPSIM-15235): Mosfet M_M10, model CMOSP: Pd = 0 is less than W

WARNING(ORPSIM-15235): Mosfet M_M10, model CMOSP: Ps = 0 is less than W

WARNING(ORPSIM-15235): Mosfet M_M11, model CMOSP: Pd = 0 is less than W

WARNING(ORPSIM-15235): Mosfet M_M11, model CMOSP: Ps = 0 is less than W

**** 04/20/24 18:58:48 **** PSpice 23.1.0 (30 January 2024) *** ID# 0 ********

 ** Profile: "SCHEMATIC1-ac-response"  [ c:\eeo\eeo-311\simulation\s-2\_spice\pm-sim-2-pspicefiles\schematic1\ac-response.sim ] 


 ****     SMALL SIGNAL BIAS SOLUTION       TEMPERATURE =   27.000 DEG C


******************************************************************************



 NODE   VOLTAGE     NODE   VOLTAGE     NODE   VOLTAGE     NODE   VOLTAGE


(VOUT1)    -.7945  (VOUT2)    -.7945  (N00782)    0.0000 (N00786)    0.0000     

(N00798)    0.0000 (N00805)    0.0000 (N00809)     .9785 (N01032)   -1.2177     

(N01036)     .9229 (N01097)   -2.0000 (N01279)    2.0000 




    VOLTAGE SOURCE CURRENTS
    NAME         CURRENT

    V_Vdd       -7.776E-05
    V_V1         0.000E+00
    V_Vss       -7.776E-05
    V_V2         0.000E+00

    TOTAL POWER DISSIPATION   3.11E-04  WATTS



          JOB CONCLUDED

**** 04/20/24 18:58:48 **** PSpice 23.1.0 (30 January 2024) *** ID# 0 ********

 ** Profile: "SCHEMATIC1-ac-response"  [ c:\eeo\eeo-311\simulation\s-2\_spice\pm-sim-2-pspicefiles\schematic1\ac-response.sim ] 


 ****     JOB STATISTICS SUMMARY


******************************************************************************



  Total job time (using Solver 1)   =         .33
